
T29FC 000:041 SEGGER J-Link V6.10i Log File (0001ms, 0032ms total)
T29FC 000:041 DLL Compiled: Oct 25 2016 19:31:51 (0001ms, 0032ms total)
T29FC 000:041 Logging started @ 2017-10-13 08:43 (0001ms, 0032ms total)
T29FC 000:042 JLINK_SetWarnOutHandler(...) (0000ms, 0032ms total)
T29FC 000:042 JLINK_OpenEx(...)SERVER_Parent Server (S/N -1) is using protocol version 51206 which is too old (>= 54110 required). Closing connection to server. (0004ms, 0036ms total)
T29FC 000:042 
Firmware: J-Link ARM V8 compiled Nov 28 2014 13:44:46
Hardware: V8.00
Feature(s): RDI,FlashDL,FlashBP,JFlash,GDBFULLWEBSRV Webserver running on local port 19080 (0024ms, 0056ms total)
T29FC 000:042   returns O.K. (0024ms, 0056ms total)
T29FC 000:066 JLINK_SetErrorOutHandler(...) (0000ms, 0056ms total)
T29FC 000:066 JLINK_ExecCommand("ProjectFile = "D:\NRFSDK14\examples\ble_peripheral\ble_app_uart\pca10040\s132\arm5_no_packs\JLinkSettings.ini"", ...).   returns 0x00 (0110ms, 0166ms total)
T29FC 000:176 JLINK_ExecCommand("Device = nRF52832_xxAA", ...). Device "NRF52832_XXAA" selected.  returns 0x00 (0001ms, 0167ms total)
T29FC 000:177 JLINK_ExecCommand("DisableConnectionTimeout", ...).   returns 0x01 (0000ms, 0167ms total)
T29FC 000:177 JLINK_GetHardwareVersion()  returns 0x13880 (0000ms, 0167ms total)
T29FC 000:177 JLINK_GetDLLVersion()  returns 61009 (0000ms, 0167ms total)
T29FC 000:177 JLINK_GetFirmwareString(...) (0000ms, 0167ms total)
T29FC 000:177 JLINK_GetDLLVersion()  returns 61009 (0000ms, 0167ms total)
T29FC 000:177 JLINK_GetCompileDateTime() (0000ms, 0167ms total)
T29FC 000:177 JLINK_GetFirmwareString(...) (0000ms, 0167ms total)
T29FC 000:177 JLINK_GetHardwareVersion()  returns 0x13880 (0000ms, 0167ms total)
T29FC 000:177 JLINK_TIF_Select(JLINKARM_TIF_SWD)  returns 0x00 (0006ms, 0173ms total)
T29FC 000:183 JLINK_SetSpeed(5000) (0001ms, 0174ms total)
T29FC 000:184 JLINK_GetId() >0x108 TIF>Found SWD-DP with ID 0x2BA01477 >0x0D TIF> >0x28 TIF> >0x0D TIF> >0x28 TIF> >0x0D TIF> >0x28 TIF> >0x0D TIF> >0x28 TIF> >0x35 TIF> >0x0D TIF> >0x28 TIF> >0x0D TIF> >0x28 TIF> >0x35 TIF> >0x35 TIF> >0x35 TIF>AP-IDR: 0x24770011, Type: AHB-AP >0x0D TIF> >0x28 TIF> >0x0D TIF> >0x28 TIF> >0x0D TIF> >0x28 TIF> >0x35 TIF> >0x35 TIF> >0x0D TIF> >0x28 TIF> >0x35 TIF> >0x35 TIF>Found Cortex-M4 r0p1, Little endian. -- CPU_ReadMem(4 bytes @ 0xE000EDF0)
 -- CPU_ReadMem(4 bytes @ 0xE0002000)FPUnit: 6 code (BP) slots and 2 literal slots -- CPU_ReadMem(4 bytes @ 0xE000EDFC) -- CPU_ReadMem(4 bytes @ 0xE0001000) -- CPU_WriteMem(4 bytes @ 0xE0001000) -- CPU_ReadMem(4 bytes @ 0xE000ED88) -- CPU_WriteMem(4 bytes @ 0xE000ED88) -- CPU_ReadMem(4 bytes @ 0xE000ED88) -- CPU_WriteMem(4 bytes @ 0xE000ED88)CoreSight components:ROMTbl 0 @ E00FF000 -- CPU_ReadMem(16 bytes @ 0xE00FF000) -- CPU_ReadMem(16 bytes @ 0xE000EFF0) -- CPU_ReadMem(16 bytes @ 0xE000EFE0)
ROMTbl 0 [0]: FFF0F000, CID: B105E00D, PID: 000BB00C SCS -- CPU_ReadMem(16 bytes @ 0xE0001FF0) -- CPU_ReadMem(16 bytes @ 0xE0001FE0)ROMTbl 0 [1]: FFF02000, CID: B105E00D, PID: 003BB002 DWT -- CPU_ReadMem(16 bytes @ 0xE0002FF0) -- CPU_ReadMem(16 bytes @ 0xE0002FE0)ROMTbl 0 [2]: FFF03000, CID: B105E00D, PID: 002BB003 FPB -- CPU_ReadMem(16 bytes @ 0xE0000FF0) -- CPU_ReadMem(16 bytes @ 0xE0000FE0)ROMTbl 0 [3]: FFF01000, CID: B105E00D, PID: 003BB001 ITM -- CPU_ReadMem(16 bytes @ 0xE00FF010)
 -- CPU_ReadMem(16 bytes @ 0xE0040FF0) -- CPU_ReadMem(16 bytes @ 0xE0040FE0)ROMTbl 0 [4]: FFF41000, CID: B105900D, PID: 000BB9A1 TPIU -- CPU_ReadMem(16 bytes @ 0xE0041FF0) -- CPU_ReadMem(16 bytes @ 0xE0041FE0)ROMTbl 0 [5]: FFF42000, CID: B105900D, PID: 000BB925 ETM >0x35 TIF>  returns 0x2BA01477 (0057ms, 0231ms total)
T29FC 000:241 JLINK_GetDLLVersion()  returns 61009 (0000ms, 0231ms total)
T29FC 000:241 JLINK_CORE_GetFound()  returns 0xE0000FF (0000ms, 0231ms total)
T29FC 000:242 JLINK_GetDebugInfo(0x100) -- Value=0xE00FF000  returns 0x00 (0000ms, 0232ms total)
T29FC 000:242 JLINK_GetDebugInfo(0x100) -- Value=0xE00FF000  returns 0x00 (0000ms, 0232ms total)
T29FC 000:242 JLINK_GetDebugInfo(0x101) -- Value=0xE0041000  returns 0x00 (0000ms, 0232ms total)
T29FC 000:242 JLINK_GetDebugInfo(0x102) -- Value=0x00000000  returns 0x00 (0001ms, 0233ms total)
T29FC 000:243 JLINK_GetDebugInfo(0x103) -- Value=0xE0040000  returns 0x00 (0000ms, 0233ms total)
T29FC 000:243 JLINK_GetDebugInfo(0x104) -- Value=0xE0000000  returns 0x00 (0000ms, 0233ms total)
T29FC 000:243 JLINK_GetDebugInfo(0x105) -- Value=0xE0001000  returns 0x00 (0000ms, 0233ms total)
T29FC 000:243 JLINK_GetDebugInfo(0x106) -- Value=0xE0002000  returns 0x00 (0000ms, 0233ms total)
T29FC 000:243 JLINK_GetDebugInfo(0x107) -- Value=0xE000E000  returns 0x00 (0001ms, 0234ms total)
T29FC 000:244 JLINK_GetDebugInfo(0x10C) -- Value=0xE000EDF0  returns 0x00 (0000ms, 0234ms total)
T29FC 000:244 JLINK_ReadMemU32(0xE000EF40, 0x0001 Items, ...) -- CPU is running -- CPU_ReadMem(4 bytes @ 0xE000EF40) - Data: 21 00 11 10  returns 0x01 (0001ms, 0235ms total)
T29FC 000:245 JLINK_ReadMemU32(0xE000EF44, 0x0001 Items, ...) -- CPU is running -- CPU_ReadMem(4 bytes @ 0xE000EF44) - Data: 11 00 00 11  returns 0x01 (0001ms, 0236ms total)
T29FC 000:246 JLINK_ReadMemU32(0xE000ED00, 0x0001 Items, ...) -- CPU is running -- CPU_ReadMem(4 bytes @ 0xE000ED00) - Data: 41 C2 0F 41  returns 0x01 (0001ms, 0237ms total)
T29FC 000:247 JLINK_SetResetType(JLINKARM_RESET_TYPE_NORMAL)  returns JLINKARM_RESET_TYPE_NORMAL (0000ms, 0237ms total)
T29FC 000:247 JLINK_Reset() -- CPU is running -- CPU_WriteMem(4 bytes @ 0xE000EDF0) -- CPU is running -- CPU_WriteMem(4 bytes @ 0xE000EDFC) >0x35 TIF> -- CPU is running -- CPU_WriteMem(4 bytes @ 0xE000ED0C) -- CPU is running -- CPU_ReadMem(4 bytes @ 0xE000EDF0) -- CPU is running -- CPU_ReadMem(4 bytes @ 0xE000EDF0) -- CPU is running -- CPU_WriteMem(4 bytes @ 0xE000EDF0) -- CPU is running -- CPU_WriteMem(4 bytes @ 0xE000EDFC) -- CPU is running -- CPU_ReadMem(4 bytes @ 0xE000EDF0)
 -- CPU_WriteMem(4 bytes @ 0xE0002000) -- CPU_ReadMem(4 bytes @ 0xE000EDFC) -- CPU_ReadMem(4 bytes @ 0xE0001000) (0025ms, 0262ms total)
T29FC 000:272 JLINK_ReadReg(R15 (PC))  returns 0x000008E8 (0000ms, 0262ms total)
T29FC 000:272 JLINK_ReadReg(XPSR)  returns 0x01000000 (0000ms, 0262ms total)
T29FC 000:272 JLINK_Halt()  returns 0x00 (0000ms, 0262ms total)
T29FC 000:272 JLINK_IsHalted()  returns TRUE (0001ms, 0263ms total)
T29FC 000:273 JLINK_ReadMemU32(0xE000EDF0, 0x0001 Items, ...) -- CPU_ReadMem(4 bytes @ 0xE000EDF0) - Data: 03 00 03 00  returns 0x01 (0001ms, 0263ms total)
T29FC 000:274 JLINK_WriteU32(0xE000EDF0, 0xA05F0003) -- CPU_WriteMem(4 bytes @ 0xE000EDF0)  returns 0x00 (0001ms, 0264ms total)
T29FC 000:275 JLINK_WriteU32(0xE000EDFC, 0x01000000) -- CPU_WriteMem(4 bytes @ 0xE000EDFC)  returns 0x00 (0001ms, 0265ms total)
T29FC 000:276 JLINK_GetHWStatus(...)  returns 0x00 (0001ms, 0266ms total)
T29FC 000:277 JLINK_GetNumBPUnits(Type = 0xFFFFFF00)  returns 0x06 (0000ms, 0266ms total)
T29FC 000:277 JLINK_GetNumBPUnits(Type = 0xF0)  returns 0x2000 (0000ms, 0266ms total)
T29FC 000:277 JLINK_GetNumWPUnits()  returns 0x04 (0000ms, 0266ms total)
T29FC 000:277 JLINK_GetSpeed()  returns 0xFA0 (0000ms, 0266ms total)
T29FC 000:277 JLINK_ReadMemU32(0xE000E004, 0x0001 Items, ...) -- CPU_ReadMem(4 bytes @ 0xE000E004) - Data: 01 00 00 00  returns 0x01 (0002ms, 0268ms total)
T29FC 000:279 JLINK_ReadMemU32(0xE000E004, 0x0001 Items, ...) -- CPU_ReadMem(4 bytes @ 0xE000E004) - Data: 01 00 00 00  returns 0x01 (0001ms, 0269ms total)
T29FC 000:280 JLINK_WriteMem(0xE0001000, 0x001C Bytes, ...) - Data: 01 00 00 00 00 00 00 00 00 00 00 00 00 00 00 00 ... -- CPU_WriteMem(28 bytes @ 0xE0001000)  returns 0x1C (0002ms, 0271ms total)
T29FC 000:282 JLINK_ReadMem (0xE0001000, 0x001C Bytes, ...) -- CPU_ReadMem(28 bytes @ 0xE0001000) - Data: 01 00 00 40 00 00 00 00 00 00 00 00 00 00 00 00 ...  returns 0x00 (0001ms, 0272ms total)
T29FC 000:283 JLINK_ReadReg(R15 (PC))  returns 0x000008E8 (0000ms, 0272ms total)
T29FC 000:283 JLINK_ReadReg(XPSR)  returns 0x01000000 (0000ms, 0272ms total)
T29FC 000:283 JLINK_WriteU32(0xE0041FB0, 0xC5ACCE55) -- CPU_WriteMem(4 bytes @ 0xE0041FB0)  returns 0x00 (0002ms, 0274ms total)
T29FC 000:285 JLINK_ReadMemU32(0xE0041000, 0x0001 Items, ...) -- CPU_ReadMem(4 bytes @ 0xE0041000) - Data: 11 04 00 00  returns 0x01 (0001ms, 0275ms total)
T29FC 000:286 JLINK_WriteU32(0xE0041000, 0x00000410) -- CPU_WriteMem(4 bytes @ 0xE0041000)  returns 0x00 (0001ms, 0276ms total)
T29FC 000:290 JLINK_SWO_Control(JLINKARM_SWO_CMD_GET_SPEED_INFO, ...)  returns 0x00 (0002ms, 0278ms total)
T29FC 000:292 JLINK_SWO_Control(JLINKARM_SWO_CMD_STOP, ...)  returns 0x00 (0000ms, 0278ms total)
T29FC 000:292 JLINK_SWO_Control(JLINKARM_SWO_CMD_START, ...) -- UART -- 2000000bps  returns 0x00 (0005ms, 0283ms total)
T29FC 000:299 JLINK_WriteU32(0xE0040004, 0x00000001) -- CPU_WriteMem(4 bytes @ 0xE0040004)  returns 0x00 (0001ms, 0284ms total)
T29FC 000:300 JLINK_WriteU32(0xE0040010, 0x00000004)  returns 0x00 (0000ms, 0284ms total)
T29FC 000:300 JLINK_WriteU32(0xE00400F0, 0x00000002)  returns 0x00 (0000ms, 0284ms total)
T29FC 000:300 JLINK_WriteU32(0xE0040304, 0x00000000)  returns 0x00 (0000ms, 0284ms total)
T29FC 000:300 JLINK_WriteU32(0xE0000FB0, 0xC5ACCE55) -- CPU_WriteMem(4 bytes @ 0xE0000FB0)  returns 0x00 (0002ms, 0286ms total)
T29FC 000:302 JLINK_WriteU32(0xE0000E80, 0x0001000D)  returns 0x00 (0000ms, 0286ms total)
T29FC 000:302 JLINK_WriteU32(0xE0000E00, 0xFFFFFFFF)  returns 0x00 (0000ms, 0286ms total)
T29FC 000:302 JLINK_WriteU32(0xE0000E40, 0x00000008)  returns 0x00 (0000ms, 0286ms total)
T29FC 000:302 JLINK_WriteU32(0xE0001000, 0x0001061F)  returns 0x00 (0000ms, 0286ms total)
T29FC 000:478 JLINK_SetResetType(JLINKARM_RESET_TYPE_NORMAL)  returns JLINKARM_RESET_TYPE_NORMAL (0000ms, 0286ms total)
T29FC 000:478 JLINK_Reset() -- CPU_WriteMem(4 bytes @ 0xE0000E00) -- CPU_WriteMem(4 bytes @ 0xE0000E40) -- CPU_WriteMem(4 bytes @ 0xE0000E80) -- CPU_WriteMem(4 bytes @ 0xE0001000) -- CPU_WriteMem(4 bytes @ 0xE0040010) -- CPU_WriteMem(4 bytes @ 0xE00400F0) -- CPU_WriteMem(4 bytes @ 0xE0040304) -- CPU_WriteMem(4 bytes @ 0xE000EDF0) -- CPU_WriteMem(4 bytes @ 0xE000EDFC) >0x35 TIF> -- CPU_WriteMem(4 bytes @ 0xE000ED0C) -- CPU_ReadMem(4 bytes @ 0xE000EDF0) -- CPU_ReadMem(4 bytes @ 0xE000EDF0)
 -- CPU_WriteMem(4 bytes @ 0xE000EDF0) -- CPU_WriteMem(4 bytes @ 0xE000EDFC) -- CPU is running -- CPU_ReadMem(4 bytes @ 0xE000EDF0) -- CPU_WriteMem(4 bytes @ 0xE0002000) -- CPU_ReadMem(4 bytes @ 0xE000EDFC) -- CPU_ReadMem(4 bytes @ 0xE0001000) (0032ms, 0318ms total)
T29FC 000:512 JLINK_WriteU32(0xE000EDFC, 0x01000000) -- CPU_WriteMem(4 bytes @ 0xE000EDFC)  returns 0x00 (0001ms, 0319ms total)
T29FC 000:513 JLINK_ReadReg(R15 (PC))  returns 0x000008E8 (0000ms, 0319ms total)
T29FC 000:513 JLINK_ReadReg(XPSR)  returns 0x01000000 (0000ms, 0319ms total)
T29FC 000:529 JLINK_ReadMem (0x000008E8, 0x003C Bytes, ...) -- CPU_ReadMem(128 bytes @ 0x000008C0) -- Updating C cache (128 bytes @ 0x000008C0) -- Read from C cache (60 bytes @ 0x000008E8) - Data: 06 4B 18 47 06 4A 10 60 01 68 81 F3 08 88 40 68 ...  returns 0x00 (0002ms, 0321ms total)
T29FC 000:585 JLINK_WriteU32(0xE0001008, 0x00000000)  returns 0x00 (0000ms, 0321ms total)
T29FC 000:585 JLINK_WriteU32(0xE000100C, 0x00000000)  returns 0x00 (0000ms, 0321ms total)
T29FC 000:586 JLINK_WriteU32(0xE0001010, 0x00000000)  returns 0x00 (0000ms, 0322ms total)
T29FC 000:586 JLINK_WriteU32(0xE0001014, 0x00000000)  returns 0x00 (0000ms, 0322ms total)
T29FC 000:586 JLINK_WriteU32(0xE0001018, 0x00000000)  returns 0x00 (0000ms, 0322ms total)
T0D38 001:768 JLINK_SetBPEx(Addr = 0x00025AF8, Type = 0xFFFFFFF2)  returns 0x00000001 (0000ms, 0322ms total)
T0D38 001:768 JLINK_SetBPEx(Addr = 0x00027804, Type = 0xFFFFFFF2)  returns 0x00000002 (0000ms, 0322ms total)
T0D38 001:768 JLINK_SetBPEx(Addr = 0x0002871C, Type = 0xFFFFFFF2)  returns 0x00000003 (0000ms, 0322ms total)
T0D38 001:768 JLINK_ReadMemU32(0xE0001004, 0x0001 Items, ...) - Data: 00 00 00 00  returns 0x01 (0000ms, 0322ms total)
T0D38 001:768 JLINK_WriteU32(0xE0001004, 0x000003FF)  returns 0x00 (0000ms, 0322ms total)
T0D38 001:768 JLINK_WriteU32(0xE0001000, 0x0041061F)  returns 0x00 (0000ms, 0322ms total)
T0D38 001:768 JLINK_WriteU32(0xE0000E80, 0x0001000F)  returns 0x00 (0000ms, 0322ms total)
T0D38 001:768 JLINK_SWO_Control(JLINKARM_SWO_CMD_GET_NUM_BYTES, ...)  returns 0x00 (0001ms, 0323ms total)
T0D38 001:769 JLINK_Go() -- CPU_WriteMem(4 bytes @ 0xE0002000) -- CPU_WriteMem(4 bytes @ 0xE0002000) -- CPU_WriteMem(4 bytes @ 0xE0002000) -- CPU_WriteMem(4 bytes @ 0xE0001000) -- CPU_ReadMem(4 bytes @ 0xE0001000) -- CPU_WriteMem(4 bytes @ 0xE0000E80) -- CPU_WriteMem(4 bytes @ 0xE0001008) -- CPU_WriteMem(4 bytes @ 0xE000100C) -- CPU_WriteMem(4 bytes @ 0xE0001010) -- CPU_WriteMem(4 bytes @ 0xE0001014) -- CPU_WriteMem(4 bytes @ 0xE0001018) -- CPU_WriteMem(4 bytes @ 0xE0002008)
 -- CPU_WriteMem(4 bytes @ 0xE000200C) -- CPU_WriteMem(4 bytes @ 0xE0002010) -- CPU_WriteMem(4 bytes @ 0xE0002014) -- CPU_WriteMem(4 bytes @ 0xE0002018) -- CPU_WriteMem(4 bytes @ 0xE000201C) -- CPU_WriteMem(4 bytes @ 0xE0001004) (0020ms, 0343ms total)
T0D38 001:791 JLINK_WriteU32(0xE0001000, 0x0001061F) -- CPU is running -- CPU_WriteMem(4 bytes @ 0xE0001000)  returns 0x00 (0001ms, 0344ms total)
T0D38 001:908 JLINK_SWO_Read(..., Offset = 0x00, NumBytes = 0x400000) - Data:  NumBytesRead = 0x00 (0000ms, 0344ms total)
T0D38 001:910 JLINK_SWO_Control(JLINKARM_SWO_CMD_FLUSH, ...)  returns 0x00 (0000ms, 0344ms total)
T0D38 001:910 JLINK_IsHalted()  returns TRUE (0003ms, 0347ms total)
T0D38 001:913 JLINK_Halt()  returns 0x00 (0000ms, 0344ms total)
T0D38 001:913 JLINK_IsHalted()  returns TRUE (0000ms, 0344ms total)
T0D38 001:913 JLINK_IsHalted()  returns TRUE (0000ms, 0344ms total)
T0D38 001:913 JLINK_IsHalted()  returns TRUE (0000ms, 0344ms total)
T0D38 001:913 JLINK_ReadReg(R15 (PC))  returns 0x00025AF8 (0000ms, 0344ms total)
T0D38 001:913 JLINK_ReadReg(XPSR)  returns 0x61000000 (0000ms, 0344ms total)
T0D38 001:913 JLINK_SWO_Read(..., Offset = 0x00, NumBytes = 0x400000) - Data:  NumBytesRead = 0x00 (0000ms, 0344ms total)
T0D38 001:915 JLINK_SWO_Control(JLINKARM_SWO_CMD_FLUSH, ...)  returns 0x00 (0000ms, 0344ms total)
T0D38 001:915 JLINK_ClrBPEx(BPHandle = 0x00000001)  returns 0x00 (0000ms, 0344ms total)
T0D38 001:915 JLINK_ClrBPEx(BPHandle = 0x00000002)  returns 0x00 (0000ms, 0344ms total)
T0D38 001:915 JLINK_ClrBPEx(BPHandle = 0x00000003)  returns 0x00 (0000ms, 0344ms total)
T0D38 001:915 JLINK_ReadMemU32(0xE000ED30, 0x0001 Items, ...) -- CPU_ReadMem(4 bytes @ 0xE000ED30) - Data: 03 00 00 00  returns 0x01 (0001ms, 0345ms total)
T0D38 001:916 JLINK_ReadMemU32(0xE0001028, 0x0001 Items, ...) -- CPU_ReadMem(4 bytes @ 0xE0001028) - Data: 00 00 00 00  returns 0x01 (0001ms, 0346ms total)
T0D38 001:917 JLINK_ReadMemU32(0xE0001038, 0x0001 Items, ...) -- CPU_ReadMem(4 bytes @ 0xE0001038) - Data: 00 02 00 00  returns 0x01 (0031ms, 0377ms total)
T0D38 001:949 JLINK_ReadMemU32(0xE0001048, 0x0001 Items, ...) -- CPU_ReadMem(4 bytes @ 0xE0001048) - Data: 00 00 00 00  returns 0x01 (0001ms, 0378ms total)
T0D38 001:950 JLINK_ReadMemU32(0xE0001058, 0x0001 Items, ...) -- CPU_ReadMem(4 bytes @ 0xE0001058) - Data: 00 00 00 00  returns 0x01 (0001ms, 0379ms total)
T0D38 001:951 JLINK_ReadReg(R0)  returns 0x00025AF9 (0000ms, 0379ms total)
T0D38 001:951 JLINK_ReadReg(R1)  returns 0x20005B20 (0000ms, 0379ms total)
T0D38 001:952 JLINK_ReadReg(R2)  returns 0x00000000 (0000ms, 0380ms total)
T0D38 001:952 JLINK_ReadReg(R3)  returns 0x00023BFF (0000ms, 0380ms total)
T0D38 001:952 JLINK_ReadReg(R4)  returns 0x000296E4 (0000ms, 0380ms total)
T0D38 001:952 JLINK_ReadReg(R5)  returns 0x000296E4 (0000ms, 0380ms total)
T0D38 001:952 JLINK_ReadReg(R6)  returns 0x00000000 (0000ms, 0380ms total)
T0D38 001:952 JLINK_ReadReg(R7)  returns 0x00000000 (0001ms, 0381ms total)
T0D38 001:953 JLINK_ReadReg(R8)  returns 0x00000000 (0000ms, 0381ms total)
T0D38 001:953 JLINK_ReadReg(R9)  returns 0x00000000 (0000ms, 0381ms total)
T0D38 001:953 JLINK_ReadReg(R10)  returns 0x00000000 (0000ms, 0381ms total)
T0D38 001:953 JLINK_ReadReg(R11)  returns 0x00000000 (0000ms, 0381ms total)
T0D38 001:953 JLINK_ReadReg(R12)  returns 0x00000000 (0000ms, 0381ms total)
T0D38 001:953 JLINK_ReadReg(R13 (SP))  returns 0x20005B20 (0001ms, 0382ms total)
T0D38 001:955 JLINK_ReadReg(R14)  returns 0x000234A1 (0000ms, 0382ms total)
T0D38 001:955 JLINK_ReadReg(R15 (PC))  returns 0x00025AF8 (0000ms, 0382ms total)
T0D38 001:955 JLINK_ReadReg(XPSR)  returns 0x61000000 (0001ms, 0383ms total)
T0D38 001:956 JLINK_ReadReg(MSP)  returns 0x20005B20 (0000ms, 0383ms total)
T0D38 001:956 JLINK_ReadReg(PSP)  returns 0x00000000 (0000ms, 0383ms total)
T0D38 001:956 JLINK_ReadReg(CFBP)  returns 0x00000000 (0000ms, 0383ms total)
T0D38 001:956 JLINK_ReadReg(FPSCR)  returns 0x00000000 (0005ms, 0388ms total)
T0D38 001:992 JLINK_ReadReg(FPS0)  returns 0x00000000 (0000ms, 0388ms total)
T0D38 001:992 JLINK_ReadReg(FPS1)  returns 0x00000000 (0000ms, 0388ms total)
T0D38 001:992 JLINK_ReadReg(FPS2)  returns 0x00000000 (0000ms, 0388ms total)
T0D38 001:992 JLINK_ReadReg(FPS3)  returns 0x00000000 (0000ms, 0388ms total)
T0D38 001:992 JLINK_ReadReg(FPS4)  returns 0x00000000 (0000ms, 0388ms total)
T0D38 001:992 JLINK_ReadReg(FPS5)  returns 0x00000000 (0000ms, 0388ms total)
T0D38 001:993 JLINK_ReadReg(FPS6)  returns 0x00000000 (0000ms, 0389ms total)
T0D38 001:993 JLINK_ReadReg(FPS7)  returns 0x00000000 (0000ms, 0389ms total)
T0D38 001:993 JLINK_ReadReg(FPS8)  returns 0x00000000 (0000ms, 0389ms total)
T0D38 001:993 JLINK_ReadReg(FPS9)  returns 0x00000000 (0000ms, 0389ms total)
T0D38 001:993 JLINK_ReadReg(FPS10)  returns 0x00000000 (0000ms, 0389ms total)
T0D38 001:993 JLINK_ReadReg(FPS11)  returns 0x00000000 (0000ms, 0389ms total)
T0D38 001:993 JLINK_ReadReg(FPS12)  returns 0x00000000 (0000ms, 0389ms total)
T0D38 001:993 JLINK_ReadReg(FPS13)  returns 0x00000000 (0000ms, 0389ms total)
T0D38 001:993 JLINK_ReadReg(FPS14)  returns 0x00000000 (0000ms, 0389ms total)
T0D38 001:993 JLINK_ReadReg(FPS15)  returns 0x00000000 (0001ms, 0390ms total)
T0D38 001:994 JLINK_ReadReg(FPS16)  returns 0x00000000 (0000ms, 0390ms total)
T0D38 001:994 JLINK_ReadReg(FPS17)  returns 0x00000000 (0000ms, 0390ms total)
T0D38 001:994 JLINK_ReadReg(FPS18)  returns 0x00000000 (0000ms, 0390ms total)
T0D38 001:994 JLINK_ReadReg(FPS19)  returns 0x00000000 (0000ms, 0390ms total)
T0D38 001:994 JLINK_ReadReg(FPS20)  returns 0x00000000 (0000ms, 0390ms total)
T0D38 001:994 JLINK_ReadReg(FPS21)  returns 0x00000000 (0000ms, 0390ms total)
T0D38 001:994 JLINK_ReadReg(FPS22)  returns 0x00000000 (0000ms, 0390ms total)
T0D38 001:994 JLINK_ReadReg(FPS23)  returns 0x00000000 (0000ms, 0390ms total)
T0D38 001:994 JLINK_ReadReg(FPS24)  returns 0x00000000 (0000ms, 0390ms total)
T0D38 001:995 JLINK_ReadReg(FPS25)  returns 0x00000000 (0000ms, 0391ms total)
T0D38 001:995 JLINK_ReadReg(FPS26)  returns 0x00000000 (0000ms, 0391ms total)
T0D38 001:995 JLINK_ReadReg(FPS27)  returns 0x00000000 (0000ms, 0391ms total)
T0D38 001:995 JLINK_ReadReg(FPS28)  returns 0x00000000 (0000ms, 0391ms total)
T0D38 001:995 JLINK_ReadReg(FPS29)  returns 0x00000000 (0000ms, 0391ms total)
T0D38 001:995 JLINK_ReadReg(FPS30)  returns 0x00000000 (0000ms, 0391ms total)
T0D38 001:995 JLINK_ReadReg(FPS31)  returns 0x00000000 (0000ms, 0391ms total)
T29FC 001:996 JLINK_ReadMem (0x00000000, 0x0004 Bytes, ...) -- CPU_ReadMem(64 bytes @ 0x00000000) -- Updating C cache (64 bytes @ 0x00000000) -- Read from C cache (4 bytes @ 0x00000000) - Data: 00 04 00 20  returns 0x00 (0001ms, 0392ms total)
T29FC 001:998 JLINK_ReadMemU32(0xE0001004, 0x0001 Items, ...) -- CPU_ReadMem(4 bytes @ 0xE0001004) - Data: 02 7C 00 00  returns 0x01 (0001ms, 0393ms total)
T29FC 002:031 JLINK_ReadMem (0x000259F8, 0x003C Bytes, ...) -- CPU_ReadMem(128 bytes @ 0x000259C0) -- Updating C cache (128 bytes @ 0x000259C0) -- Read from C cache (60 bytes @ 0x000259F8) - Data: 00 B1 65 60 62 68 B1 68 18 4B 50 1A 20 F0 7F 40 ...  returns 0x00 (0002ms, 0395ms total)
T29FC 002:033 JLINK_ReadMem (0x00025A34, 0x003C Bytes, ...) -- CPU_ReadMem(64 bytes @ 0x00025A40) -- Updating C cache (64 bytes @ 0x00025A40) -- Read from C cache (60 bytes @ 0x00025A34) - Data: 15 FD B8 F1 00 00 A4 D1 99 F8 00 10 99 F8 01 00 ...  returns 0x00 (0002ms, 0397ms total)
T29FC 002:035 JLINK_ReadMem (0x00025A70, 0x003C Bytes, ...) -- CPU_ReadMem(64 bytes @ 0x00025A80) -- Updating C cache (64 bytes @ 0x00025A80) -- Read from C cache (60 bytes @ 0x00025A70) - Data: 01 47 04 EA 07 00 05 EB 80 06 05 F5 83 60 0C 36 ...  returns 0x00 (0002ms, 0399ms total)
T29FC 002:038 JLINK_ReadMem (0x00025AAC, 0x003C Bytes, ...) -- CPU_ReadMem(64 bytes @ 0x00025AC0) -- Updating C cache (64 bytes @ 0x00025AC0) -- Read from C cache (60 bytes @ 0x00025AAC) - Data: 00 20 69 46 04 EA 07 02 05 EB 82 02 64 1C D2 68 ...  returns 0x00 (0001ms, 0400ms total)
T29FC 002:039 JLINK_ReadMem (0x00025AE8, 0x003C Bytes, ...) -- CPU_ReadMem(64 bytes @ 0x00025B00) -- Updating C cache (64 bytes @ 0x00025B00) -- Read from C cache (60 bytes @ 0x00025AE8) - Data: 03 21 01 EB 90 50 04 EB 90 04 F1 E7 74 34 00 20 ...  returns 0x00 (0002ms, 0402ms total)
T0D38 003:463 JLINK_SetBPEx(Addr = 0x00027804, Type = 0xFFFFFFF2)  returns 0x00000004 (0000ms, 0402ms total)
T0D38 003:463 JLINK_SetBPEx(Addr = 0x0002871C, Type = 0xFFFFFFF2)  returns 0x00000005 (0000ms, 0402ms total)
T0D38 003:463 JLINK_ReadMemU32(0xE0001004, 0x0001 Items, ...) - Data: 02 7C 00 00  returns 0x01 (0000ms, 0402ms total)
T0D38 003:463 JLINK_WriteU32(0xE0001004, 0x00007FFF)  returns 0x00 (0000ms, 0402ms total)
T0D38 003:463 JLINK_WriteU32(0xE0001000, 0x0041061F)  returns 0x00 (0000ms, 0402ms total)
T0D38 003:463 JLINK_WriteU32(0xE0000E80, 0x0001000F)  returns 0x00 (0000ms, 0402ms total)
T0D38 003:463 JLINK_SWO_Control(JLINKARM_SWO_CMD_GET_NUM_BYTES, ...)  returns 0x00 (0000ms, 0402ms total)
T0D38 003:464 JLINK_Go() -- CPU_WriteMem(4 bytes @ 0xE0002000) -- CPU_WriteMem(4 bytes @ 0xE0002000) -- CPU_WriteMem(4 bytes @ 0xE0001000) -- CPU_ReadMem(4 bytes @ 0xE0001000) -- CPU_WriteMem(4 bytes @ 0xE0000E80) -- CPU_WriteMem(4 bytes @ 0xE0002008) -- CPU_WriteMem(4 bytes @ 0xE000200C) -- CPU_WriteMem(4 bytes @ 0xE0002010) -- CPU_WriteMem(4 bytes @ 0xE0001004) (0011ms, 0414ms total)
T0D38 003:506 JLINK_WriteU32(0xE0001000, 0x0001061F) -- CPU is running -- CPU_WriteMem(4 bytes @ 0xE0001000)  returns 0x00 (0001ms, 0415ms total)
T0D38 003:625 JLINK_SWO_Read(..., Offset = 0x00, NumBytes = 0x400000) - Data:  NumBytesRead = 0x00 (0000ms, 0415ms total)
T0D38 003:627 JLINK_SWO_Control(JLINKARM_SWO_CMD_FLUSH, ...)  returns 0x00 (0000ms, 0415ms total)
T0D38 003:627 JLINK_IsHalted()  returns FALSE (0001ms, 0416ms total)
T0D38 003:745 JLINK_SWO_Read(..., Offset = 0x00, NumBytes = 0x400000) - Data:  NumBytesRead = 0x00 (0000ms, 0415ms total)
T0D38 003:747 JLINK_SWO_Control(JLINKARM_SWO_CMD_FLUSH, ...)  returns 0x00 (0000ms, 0415ms total)
T0D38 003:747 JLINK_IsHalted()  returns FALSE (0001ms, 0416ms total)
T0D38 003:870 JLINK_SWO_Read(..., Offset = 0x00, NumBytes = 0x400000) - Data:  NumBytesRead = 0x00 (0000ms, 0415ms total)
T0D38 003:872 JLINK_SWO_Control(JLINKARM_SWO_CMD_FLUSH, ...)  returns 0x00 (0000ms, 0415ms total)
T0D38 003:872 JLINK_IsHalted()  returns FALSE (0001ms, 0416ms total)
T0D38 003:973 JLINK_SWO_Read(..., Offset = 0x00, NumBytes = 0x400000) - Data:  NumBytesRead = 0x00 (0000ms, 0415ms total)
T0D38 003:975 JLINK_SWO_Control(JLINKARM_SWO_CMD_FLUSH, ...)  returns 0x00 (0000ms, 0415ms total)
T0D38 003:975 JLINK_IsHalted()  returns FALSE (0001ms, 0416ms total)
T0D38 004:077 JLINK_SWO_Read(..., Offset = 0x00, NumBytes = 0x400000) - Data:  NumBytesRead = 0x00 (0000ms, 0415ms total)
T0D38 004:080 JLINK_SWO_Control(JLINKARM_SWO_CMD_FLUSH, ...)  returns 0x00 (0000ms, 0415ms total)
T0D38 004:080 JLINK_IsHalted()  returns FALSE (0001ms, 0416ms total)
T0D38 004:181 JLINK_SWO_Read(..., Offset = 0x00, NumBytes = 0x400000) - Data:  NumBytesRead = 0x00 (0000ms, 0415ms total)
T0D38 004:184 JLINK_SWO_Control(JLINKARM_SWO_CMD_FLUSH, ...)  returns 0x00 (0000ms, 0415ms total)
T0D38 004:184 JLINK_IsHalted()  returns FALSE (0001ms, 0416ms total)
T0D38 004:285 JLINK_SWO_Read(..., Offset = 0x00, NumBytes = 0x400000) - Data:  NumBytesRead = 0x00 (0000ms, 0415ms total)
T0D38 004:288 JLINK_SWO_Control(JLINKARM_SWO_CMD_FLUSH, ...)  returns 0x00 (0000ms, 0415ms total)
T0D38 004:288 JLINK_IsHalted()  returns FALSE (0001ms, 0416ms total)
T0D38 004:389 JLINK_SWO_Read(..., Offset = 0x00, NumBytes = 0x400000) - Data:  NumBytesRead = 0x00 (0000ms, 0415ms total)
T0D38 004:392 JLINK_SWO_Control(JLINKARM_SWO_CMD_FLUSH, ...)  returns 0x00 (0000ms, 0415ms total)
T0D38 004:392 JLINK_IsHalted()  returns FALSE (0001ms, 0416ms total)
T0D38 004:493 JLINK_SWO_Read(..., Offset = 0x00, NumBytes = 0x400000) - Data:  NumBytesRead = 0x00 (0000ms, 0415ms total)
T0D38 004:496 JLINK_SWO_Control(JLINKARM_SWO_CMD_FLUSH, ...)  returns 0x00 (0000ms, 0415ms total)
T0D38 004:496 JLINK_IsHalted()  returns FALSE (0001ms, 0416ms total)
